T55BC 000:003.819   SEGGER J-Link V6.86f Log File
T55BC 000:003.949   DLL Compiled: Oct 23 2020 18:00:13
T55BC 000:003.952   Logging started @ 2023-02-17 09:46
T55BC 000:003.955 - 3.956ms
T55BC 000:003.960 JLINK_SetWarnOutHandler(...)
T55BC 000:003.964 - 0.004ms
T55BC 000:003.967 JLINK_OpenEx(...)
T55BC 000:005.419   Firmware: J-Link V11 compiled Oct  5 2020 14:56:48
T55BC 000:005.542   Decompressing FW timestamp took 101 us
T55BC 000:007.919   Hardware: V11.00
T55BC 000:007.928   S/N: 941000024
T55BC 000:007.932   OEM: SEGGER
T55BC 000:007.936   Feature(s): GDB, JFlash, FlashDL, RDI, FlashBP
T55BC 000:009.340   TELNET listener socket opened on port 19021
T55BC 000:009.401   WEBSRV Starting webserver
T55BC 000:009.467   WEBSRV Webserver running on local port 19080
T55BC 000:009.471 - 5.505ms returns "O.K."
T55BC 000:009.479 JLINK_GetEmuCaps()
T55BC 000:009.482 - 0.004ms returns 0xB9FF7BBF
T55BC 000:009.487 JLINK_TIF_GetAvailable(...)
T55BC 000:009.695 - 0.209ms
T55BC 000:009.701 JLINK_SetErrorOutHandler(...)
T55BC 000:009.703 - 0.003ms
T55BC 000:009.711 JLINK_ExecCommand("ProjectFile = "E:\02_HD\LED\LED_Embedded\JLinkSettings.ini"", ...). 
T55BC 000:015.021   Ref file found at: C:\Keil_v5\ARM\Segger\JLinkDevices.ref
T55BC 000:015.076   XML referenced by ref file: C:\Program Files (x86)\SEGGER\JLink\JLinkDevices.xml
T55BC 000:015.551   C:\Program Files (x86)\SEGGER\JLink\JLinkDevices.xml evaluated successfully.
T55BC 000:041.219   Device "CORTEX-M4" selected.
T55BC 000:041.389 - 31.682ms returns 0x00
T55BC 000:045.331 JLINK_ExecCommand("Device = STM32F407ZETx", ...). 
T55BC 000:047.578   Device "STM32F407ZE" selected.
T55BC 000:047.710 - 2.370ms returns 0x00
T55BC 000:047.722 JLINK_GetHardwareVersion()
T55BC 000:047.725 - 0.004ms returns 110000
T55BC 000:047.728 JLINK_GetDLLVersion()
T55BC 000:047.731 - 0.004ms returns 68606
T55BC 000:047.734 JLINK_GetOEMString(...)
T55BC 000:047.741 JLINK_GetFirmwareString(...)
T55BC 000:047.745 - 0.005ms
T55BC 000:053.050 JLINK_GetDLLVersion()
T55BC 000:053.058 - 0.009ms returns 68606
T55BC 000:053.062 JLINK_GetCompileDateTime()
T55BC 000:053.065 - 0.004ms
T55BC 000:054.710 JLINK_GetFirmwareString(...)
T55BC 000:054.716 - 0.008ms
T55BC 000:056.376 JLINK_GetHardwareVersion()
T55BC 000:056.383 - 0.008ms returns 110000
T55BC 000:058.034 JLINK_GetSN()
T55BC 000:058.041 - 0.008ms returns 941000024
T55BC 000:061.805 JLINK_GetOEMString(...)
T55BC 000:065.214 JLINK_TIF_Select(JLINKARM_TIF_SWD)
T55BC 000:065.918 - 0.710ms returns 0x00
T55BC 000:065.942 JLINK_HasError()
T55BC 000:065.949 JLINK_SetSpeed(5000)
T55BC 000:066.060 - 0.112ms
T55BC 000:066.065 JLINK_GetId()
T55BC 000:068.896   Found SW-DP with ID 0x2BA01477
T55BC 000:091.849   Found SW-DP with ID 0x2BA01477
T55BC 000:095.468   DPIDR: 0x2BA01477
T55BC 000:097.206   Scanning AP map to find all available APs
T55BC 000:099.303   AP[1]: Stopped AP scan as end of AP map has been reached
T55BC 000:100.978   AP[0]: AHB-AP (IDR: 0x24770011)
T55BC 000:102.730   Iterating through AP map to find AHB-AP to use
T55BC 000:104.819   AP[0]: Core found
T55BC 000:108.901   AP[0]: AHB-AP ROM base: 0xE00FF000
T55BC 000:110.890   CPUID register: 0x410FC241. Implementer code: 0x41 (ARM)
T55BC 000:112.584   Found Cortex-M4 r0p1, Little endian.
T55BC 000:213.212   -- Max. mem block: 0x000045B0
T55BC 000:213.261   CPU_ReadMem(4 bytes @ 0xE000EDF0)
T55BC 000:213.666   CPU_ReadMem(4 bytes @ 0xE0002000)
T55BC 000:224.032   FPUnit: 6 code (BP) slots and 2 literal slots
T55BC 000:224.049   CPU_ReadMem(4 bytes @ 0xE000EDFC)
T55BC 000:224.242   CPU_WriteMem(4 bytes @ 0xE000EDFC)
T55BC 000:224.439   CPU_ReadMem(4 bytes @ 0xE0001000)
T55BC 000:224.643   CPU_WriteMem(4 bytes @ 0xE0001000)
T55BC 000:224.886   CPU_ReadMem(4 bytes @ 0xE000ED88)
T55BC 000:225.135   CPU_WriteMem(4 bytes @ 0xE000ED88)
T55BC 000:225.397   CPU_ReadMem(4 bytes @ 0xE000ED88)
T55BC 000:225.646   CPU_WriteMem(4 bytes @ 0xE000ED88)
T55BC 000:227.718   CoreSight components:
T55BC 000:229.464   ROMTbl[0] @ E00FF000
T55BC 000:229.473   CPU_ReadMem(64 bytes @ 0xE00FF000)
T55BC 000:229.971   CPU_ReadMem(32 bytes @ 0xE000EFE0)
T55BC 000:231.960   ROMTbl[0][0]: E000E000, CID: B105E00D, PID: 000BB00C SCS-M7
T55BC 000:231.969   CPU_ReadMem(32 bytes @ 0xE0001FE0)
T55BC 000:233.964   ROMTbl[0][1]: E0001000, CID: B105E00D, PID: 003BB002 DWT
T55BC 000:233.974   CPU_ReadMem(32 bytes @ 0xE0002FE0)
T55BC 000:236.799   ROMTbl[0][2]: E0002000, CID: B105E00D, PID: 002BB003 FPB
T55BC 000:236.810   CPU_ReadMem(32 bytes @ 0xE0000FE0)
T55BC 000:238.819   ROMTbl[0][3]: E0000000, CID: B105E00D, PID: 003BB001 ITM
T55BC 000:238.828   CPU_ReadMem(32 bytes @ 0xE0040FE0)
T55BC 000:240.943   ROMTbl[0][4]: E0040000, CID: B105900D, PID: 000BB9A1 TPIU
T55BC 000:240.952   CPU_ReadMem(32 bytes @ 0xE0041FE0)
T55BC 000:242.944   ROMTbl[0][5]: E0041000, CID: B105900D, PID: 000BB925 ETM
T55BC 000:243.137 - 177.074ms returns 0x2BA01477
T55BC 000:243.146 JLINK_GetDLLVersion()
T55BC 000:243.149 - 0.004ms returns 68606
T55BC 000:243.171 JLINK_CORE_GetFound()
T55BC 000:243.174 - 0.004ms returns 0xE0000FF
T55BC 000:243.177 JLINK_GetDebugInfo(0x100 = JLINKARM_ROM_TABLE_ADDR_INDEX)
T55BC 000:243.190   Value=0xE00FF000
T55BC 000:243.194 - 0.017ms returns 0
T55BC 000:244.871 JLINK_GetDebugInfo(0x100 = JLINKARM_ROM_TABLE_ADDR_INDEX)
T55BC 000:244.878   Value=0xE00FF000
T55BC 000:244.882 - 0.012ms returns 0
T55BC 000:244.886 JLINK_GetDebugInfo(0x101 = JLINKARM_DEBUG_INFO_ETM_ADDR_INDEX)
T55BC 000:244.888   Value=0xE0041000
T55BC 000:244.892 - 0.007ms returns 0
T55BC 000:244.899 JLINK_ReadMemEx(0xE0041FD0, 0x20 Bytes, Flags = 0x02000004)
T55BC 000:244.913   CPU_ReadMem(32 bytes @ 0xE0041FD0)
T55BC 000:245.242   Data:  04 00 00 00 00 00 00 00 00 00 00 00 00 00 00 00 ...
T55BC 000:245.246 - 0.348ms returns 32 (0x20)
T55BC 000:245.251 JLINK_GetDebugInfo(0x102 = JLINKARM_DEBUG_INFO_MTB_ADDR_INDEX)
T55BC 000:245.253   Value=0x00000000
T55BC 000:245.257 - 0.007ms returns 0
T55BC 000:245.260 JLINK_GetDebugInfo(0x103 = JLINKARM_DEBUG_INFO_TPIU_ADDR_INDEX)
T55BC 000:245.263   Value=0xE0040000
T55BC 000:245.266 - 0.007ms returns 0
T55BC 000:245.269 JLINK_GetDebugInfo(0x104 = JLINKARM_DEBUG_INFO_ITM_ADDR_INDEX)
T55BC 000:245.272   Value=0xE0000000
T55BC 000:245.275 - 0.007ms returns 0
T55BC 000:245.278 JLINK_GetDebugInfo(0x105 = JLINKARM_DEBUG_INFO_DWT_ADDR_INDEX)
T55BC 000:245.281   Value=0xE0001000
T55BC 000:245.284 - 0.007ms returns 0
T55BC 000:245.287 JLINK_GetDebugInfo(0x106 = JLINKARM_DEBUG_INFO_FPB_ADDR_INDEX)
T55BC 000:245.290   Value=0xE0002000
T55BC 000:245.293 - 0.007ms returns 0
T55BC 000:245.296 JLINK_GetDebugInfo(0x107 = JLINKARM_DEBUG_INFO_NVIC_ADDR_INDEX)
T55BC 000:245.299   Value=0xE000E000
T55BC 000:245.302 - 0.007ms returns 0
T55BC 000:245.305 JLINK_GetDebugInfo(0x10C = JLINKARM_DEBUG_INFO_DBG_ADDR_INDEX)
T55BC 000:245.308   Value=0xE000EDF0
T55BC 000:245.311 - 0.007ms returns 0
T55BC 000:245.315 JLINK_GetDebugInfo(0x01 = Unknown)
T55BC 000:245.317   Value=0x00000001
T55BC 000:245.321 - 0.007ms returns 0
T55BC 000:245.324 JLINK_ReadMemU32(0xE000ED00, 0x1 Items)
T55BC 000:245.329   CPU_ReadMem(4 bytes @ 0xE000ED00)
T55BC 000:245.490   Data:  41 C2 0F 41
T55BC 000:245.494   Debug reg: CPUID
T55BC 000:245.498 - 0.175ms returns 1 (0x1)
T55BC 000:245.502 JLINK_GetDebugInfo(0x10F = JLINKARM_DEBUG_INFO_HAS_CORTEX_M_SECURITY_EXT_INDEX)
T55BC 000:245.504   Value=0x00000000
T55BC 000:245.508 - 0.007ms returns 0
T55BC 000:245.511 JLINK_HasError()
T55BC 000:245.515 JLINK_SetResetType(JLINKARM_CM3_RESET_TYPE_NORMAL)
T55BC 000:245.518 - 0.004ms returns JLINKARM_CM3_RESET_TYPE_NORMAL
T55BC 000:245.521 JLINK_Reset()
T55BC 000:245.530   CPU is running
T55BC 000:245.534   CPU_WriteMem(4 bytes @ 0xE000EDF0)
T55BC 000:245.762   CPU is running
T55BC 000:245.767   CPU_WriteMem(4 bytes @ 0xE000EDFC)
T55BC 000:248.730   Reset: Halt core after reset via DEMCR.VC_CORERESET.
T55BC 000:250.850   Reset: Reset device via AIRCR.SYSRESETREQ.
T55BC 000:250.859   CPU is running
T55BC 000:250.864   CPU_WriteMem(4 bytes @ 0xE000ED0C)
T55BC 000:303.104   CPU_ReadMem(4 bytes @ 0xE000EDF0)
T55BC 000:303.374   CPU_ReadMem(4 bytes @ 0xE000EDF0)
T55BC 000:303.641   CPU is running
T55BC 000:303.646   CPU_WriteMem(4 bytes @ 0xE000EDF0)
T55BC 000:303.884   CPU is running
T55BC 000:303.888   CPU_WriteMem(4 bytes @ 0xE000EDFC)
T55BC 000:309.351   CPU_ReadMem(4 bytes @ 0xE000EDF0)
T55BC 000:311.196   CPU_WriteMem(4 bytes @ 0xE0002000)
T55BC 000:311.396   CPU_ReadMem(4 bytes @ 0xE000EDFC)
T55BC 000:311.645   CPU_ReadMem(4 bytes @ 0xE0001000)
T55BC 000:311.888 - 66.368ms
T55BC 000:311.896 JLINK_Halt()
T55BC 000:311.899 - 0.004ms returns 0x00
T55BC 000:311.920 JLINK_ReadMemU32(0xE000EDF0, 0x1 Items)
T55BC 000:311.933   CPU_ReadMem(4 bytes @ 0xE000EDF0)
T55BC 000:312.142   Data:  03 00 03 00
T55BC 000:312.151   Debug reg: DHCSR
T55BC 000:312.158 - 0.241ms returns 1 (0x1)
T55BC 000:312.169 JLINK_WriteU32_64(0xE000EDF0, 0xA05F0003)
T55BC 000:312.176   Debug reg: DHCSR
T55BC 000:312.200   CPU_WriteMem(4 bytes @ 0xE000EDF0)
T55BC 000:312.391 - 0.224ms returns 0 (0x00000000)
T55BC 000:312.399 JLINK_WriteU32_64(0xE000EDFC, 0x01000000)
T55BC 000:312.405   Debug reg: DEMCR
T55BC 000:312.417   CPU_WriteMem(4 bytes @ 0xE000EDFC)
T55BC 000:312.642 - 0.246ms returns 0 (0x00000000)
T55BC 000:320.385 JLINK_GetHWStatus(...)
T55BC 000:320.522 - 0.138ms returns 0
T55BC 000:328.336 JLINK_GetNumBPUnits(Type = 0xFFFFFF00)
T55BC 000:328.345 - 0.011ms returns 0x06
T55BC 000:328.349 JLINK_GetNumBPUnits(Type = 0xF0)
T55BC 000:328.352 - 0.003ms returns 0x2000
T55BC 000:328.355 JLINK_GetNumWPUnits()
T55BC 000:328.357 - 0.003ms returns 4
T55BC 000:333.301 JLINK_GetSpeed()
T55BC 000:333.309 - 0.009ms returns 5000
T55BC 000:336.554 JLINK_ReadMemU32(0xE000E004, 0x1 Items)
T55BC 000:336.568   CPU_ReadMem(4 bytes @ 0xE000E004)
T55BC 000:336.766   Data:  02 00 00 00
T55BC 000:336.770 - 0.217ms returns 1 (0x1)
T55BC 000:336.774 JLINK_ReadMemU32(0xE000E004, 0x1 Items)
T55BC 000:336.779   CPU_ReadMem(4 bytes @ 0xE000E004)
T55BC 000:336.992   Data:  02 00 00 00
T55BC 000:336.996 - 0.223ms returns 1 (0x1)
T55BC 000:337.001 JLINK_WriteMemEx(0xE0001000, 0x0000001C Bytes, Flags = 0x02000004)
T55BC 000:337.004   Data:  01 00 00 00 00 00 00 00 00 00 00 00 00 00 00 00 ...
T55BC 000:337.204   CPU_WriteMem(28 bytes @ 0xE0001000)
T55BC 000:337.470 - 0.471ms returns 0x1C
T55BC 000:337.494 JLINK_Halt()
T55BC 000:337.497 - 0.004ms returns 0x00
T55BC 000:337.500 JLINK_IsHalted()
T55BC 000:337.503 - 0.004ms returns TRUE
T55BC 000:348.277 JLINK_WriteMem(0x20000000, 0x188 Bytes, ...)
T55BC 000:348.283   Data:  00 BE 0A E0 0D 78 2D 06 68 40 08 24 40 00 00 D3 ...
T55BC 000:348.466   CPU_WriteMem(392 bytes @ 0x20000000)
T55BC 000:349.808 - 1.547ms returns 0x188
T55BC 000:349.894 JLINK_HasError()
T55BC 000:349.899 JLINK_WriteReg(R0, 0x08000000)
T55BC 000:349.904 - 0.006ms returns 0
T55BC 000:349.907 JLINK_WriteReg(R1, 0x007A1200)
T55BC 000:349.910 - 0.004ms returns 0
T55BC 000:349.913 JLINK_WriteReg(R2, 0x00000001)
T55BC 000:349.916 - 0.004ms returns 0
T55BC 000:349.919 JLINK_WriteReg(R3, 0x00000000)
T55BC 000:349.921 - 0.004ms returns 0
T55BC 000:349.925 JLINK_WriteReg(R4, 0x00000000)
T55BC 000:349.927 - 0.003ms returns 0
T55BC 000:349.930 JLINK_WriteReg(R5, 0x00000000)
T55BC 000:349.933 - 0.003ms returns 0
T55BC 000:349.936 JLINK_WriteReg(R6, 0x00000000)
T55BC 000:349.939 - 0.003ms returns 0
T55BC 000:349.942 JLINK_WriteReg(R7, 0x00000000)
T55BC 000:349.944 - 0.003ms returns 0
T55BC 000:349.948 JLINK_WriteReg(R8, 0x00000000)
T55BC 000:349.953 - 0.007ms returns 0
T55BC 000:349.956 JLINK_WriteReg(R9, 0x20000184)
T55BC 000:349.959 - 0.004ms returns 0
T55BC 000:349.962 JLINK_WriteReg(R10, 0x00000000)
T55BC 000:349.965 - 0.004ms returns 0
T55BC 000:349.968 JLINK_WriteReg(R11, 0x00000000)
T55BC 000:349.971 - 0.003ms returns 0
T55BC 000:349.974 JLINK_WriteReg(R12, 0x00000000)
T55BC 000:349.976 - 0.003ms returns 0
T55BC 000:349.979 JLINK_WriteReg(R13 (SP), 0x20001000)
T55BC 000:349.983 - 0.004ms returns 0
T55BC 000:349.986 JLINK_WriteReg(R14, 0x20000001)
T55BC 000:349.989 - 0.006ms returns 0
T55BC 000:349.995 JLINK_WriteReg(R15 (PC), 0x2000005E)
T55BC 000:349.999 - 0.005ms returns 0
T55BC 000:350.002 JLINK_WriteReg(XPSR, 0x01000000)
T55BC 000:350.005 - 0.004ms returns 0
T55BC 000:350.008 JLINK_WriteReg(MSP, 0x20001000)
T55BC 000:350.011 - 0.004ms returns 0
T55BC 000:350.014 JLINK_WriteReg(PSP, 0x20001000)
T55BC 000:350.016 - 0.003ms returns 0
T55BC 000:350.019 JLINK_WriteReg(CFBP, 0x00000000)
T55BC 000:350.022 - 0.003ms returns 0
T55BC 000:350.025 JLINK_SetBPEx(Addr = 0x20000000, Type = 0xFFFFFFF2)
T55BC 000:350.031   CPU_ReadMem(2 bytes @ 0x20000000)
T55BC 000:350.217 - 0.192ms returns 0x00000001
T55BC 000:350.221 JLINK_Go()
T55BC 000:350.225   CPU_WriteMem(2 bytes @ 0x20000000)
T55BC 000:350.424   CPU_ReadMem(4 bytes @ 0xE0001000)
T55BC 000:350.637   CPU_WriteMem(4 bytes @ 0xE0002008)
T55BC 000:350.641   CPU_WriteMem(4 bytes @ 0xE000200C)
T55BC 000:350.645   CPU_WriteMem(4 bytes @ 0xE0002010)
T55BC 000:350.649   CPU_WriteMem(4 bytes @ 0xE0002014)
T55BC 000:350.652   CPU_WriteMem(4 bytes @ 0xE0002018)
T55BC 000:350.656   CPU_WriteMem(4 bytes @ 0xE000201C)
T55BC 000:351.421   CPU_WriteMem(4 bytes @ 0xE0001004)
T55BC 000:353.237 - 3.017ms
T55BC 000:353.241 JLINK_IsHalted()
T55BC 000:354.825   CPU_ReadMem(2 bytes @ 0x20000000)
T55BC 000:355.017 - 1.777ms returns TRUE
T55BC 000:355.022 JLINK_ReadReg(R15 (PC))
T55BC 000:355.026 - 0.005ms returns 0x20000000
T55BC 000:355.029 JLINK_ClrBPEx(BPHandle = 0x00000001)
T55BC 000:355.032 - 0.004ms returns 0x00
T55BC 000:355.036 JLINK_ReadReg(R0)
T55BC 000:355.038 - 0.018ms returns 0x00000000
T55BC 000:355.735 JLINK_HasError()
T55BC 000:355.744 JLINK_WriteReg(R0, 0x08000000)
T55BC 000:355.749 - 0.006ms returns 0
T55BC 000:355.753 JLINK_WriteReg(R1, 0x00004000)
T55BC 000:355.756 - 0.004ms returns 0
T55BC 000:355.759 JLINK_WriteReg(R2, 0x000000FF)
T55BC 000:355.762 - 0.004ms returns 0
T55BC 000:355.765 JLINK_WriteReg(R3, 0x00000000)
T55BC 000:355.768 - 0.004ms returns 0
T55BC 000:355.771 JLINK_WriteReg(R4, 0x00000000)
T55BC 000:355.773 - 0.004ms returns 0
T55BC 000:355.777 JLINK_WriteReg(R5, 0x00000000)
T55BC 000:355.779 - 0.003ms returns 0
T55BC 000:355.782 JLINK_WriteReg(R6, 0x00000000)
T55BC 000:355.785 - 0.004ms returns 0
T55BC 000:355.788 JLINK_WriteReg(R7, 0x00000000)
T55BC 000:355.791 - 0.003ms returns 0
T55BC 000:355.794 JLINK_WriteReg(R8, 0x00000000)
T55BC 000:355.797 - 0.004ms returns 0
T55BC 000:355.800 JLINK_WriteReg(R9, 0x20000184)
T55BC 000:355.802 - 0.004ms returns 0
T55BC 000:355.806 JLINK_WriteReg(R10, 0x00000000)
T55BC 000:355.808 - 0.010ms returns 0
T55BC 000:355.818 JLINK_WriteReg(R11, 0x00000000)
T55BC 000:355.821 - 0.004ms returns 0
T55BC 000:355.824 JLINK_WriteReg(R12, 0x00000000)
T55BC 000:355.827 - 0.004ms returns 0
T55BC 000:355.830 JLINK_WriteReg(R13 (SP), 0x20001000)
T55BC 000:355.833 - 0.004ms returns 0
T55BC 000:355.836 JLINK_WriteReg(R14, 0x20000001)
T55BC 000:355.839 - 0.004ms returns 0
T55BC 000:355.844 JLINK_WriteReg(R15 (PC), 0x20000020)
T55BC 000:355.847 - 0.004ms returns 0
T55BC 000:355.850 JLINK_WriteReg(XPSR, 0x01000000)
T55BC 000:355.853 - 0.004ms returns 0
T55BC 000:355.856 JLINK_WriteReg(MSP, 0x20001000)
T55BC 000:355.859 - 0.003ms returns 0
T55BC 000:355.862 JLINK_WriteReg(PSP, 0x20001000)
T55BC 000:355.865 - 0.003ms returns 0
T55BC 000:355.868 JLINK_WriteReg(CFBP, 0x00000000)
T55BC 000:355.870 - 0.003ms returns 0
T55BC 000:355.874 JLINK_SetBPEx(Addr = 0x20000000, Type = 0xFFFFFFF2)
T55BC 000:355.877 - 0.004ms returns 0x00000002
T55BC 000:355.880 JLINK_Go()
T55BC 000:355.888   CPU_ReadMem(4 bytes @ 0xE0001000)
T55BC 000:357.580 - 1.704ms
T55BC 000:357.588 JLINK_IsHalted()
T55BC 000:357.759 - 0.172ms returns FALSE
T55BC 000:357.763 JLINK_HasError()
T55BC 000:378.171 JLINK_IsHalted()
T55BC 000:379.929   CPU_ReadMem(2 bytes @ 0x20000000)
T55BC 000:380.164 - 1.994ms returns TRUE
T55BC 000:380.169 JLINK_ReadReg(R15 (PC))
T55BC 000:380.173 - 0.006ms returns 0x20000000
T55BC 000:380.177 JLINK_ClrBPEx(BPHandle = 0x00000002)
T55BC 000:380.217 - 0.043ms returns 0x00
T55BC 000:380.223 JLINK_ReadReg(R0)
T55BC 000:380.226 - 0.004ms returns 0x00000000
T55BC 000:380.503 JLINK_HasError()
T55BC 000:380.511 JLINK_WriteReg(R0, 0x08004000)
T55BC 000:380.515 - 0.005ms returns 0
T55BC 000:380.518 JLINK_WriteReg(R1, 0x00004000)
T55BC 000:380.521 - 0.004ms returns 0
T55BC 000:380.524 JLINK_WriteReg(R2, 0x000000FF)
T55BC 000:380.527 - 0.004ms returns 0
T55BC 000:380.530 JLINK_WriteReg(R3, 0x00000000)
T55BC 000:380.533 - 0.004ms returns 0
T55BC 000:380.536 JLINK_WriteReg(R4, 0x00000000)
T55BC 000:380.539 - 0.003ms returns 0
T55BC 000:380.542 JLINK_WriteReg(R5, 0x00000000)
T55BC 000:380.545 - 0.004ms returns 0
T55BC 000:380.548 JLINK_WriteReg(R6, 0x00000000)
T55BC 000:380.550 - 0.004ms returns 0
T55BC 000:380.553 JLINK_WriteReg(R7, 0x00000000)
T55BC 000:380.556 - 0.003ms returns 0
T55BC 000:380.559 JLINK_WriteReg(R8, 0x00000000)
T55BC 000:380.562 - 0.004ms returns 0
T55BC 000:380.565 JLINK_WriteReg(R9, 0x20000184)
T55BC 000:380.568 - 0.003ms returns 0
T55BC 000:380.571 JLINK_WriteReg(R10, 0x00000000)
T55BC 000:380.574 - 0.004ms returns 0
T55BC 000:380.577 JLINK_WriteReg(R11, 0x00000000)
T55BC 000:380.579 - 0.003ms returns 0
T55BC 000:380.582 JLINK_WriteReg(R12, 0x00000000)
T55BC 000:380.585 - 0.004ms returns 0
T55BC 000:380.588 JLINK_WriteReg(R13 (SP), 0x20001000)
T55BC 000:380.591 - 0.004ms returns 0
T55BC 000:380.594 JLINK_WriteReg(R14, 0x20000001)
T55BC 000:380.597 - 0.004ms returns 0
T55BC 000:380.600 JLINK_WriteReg(R15 (PC), 0x20000020)
T55BC 000:380.603 - 0.004ms returns 0
T55BC 000:380.606 JLINK_WriteReg(XPSR, 0x01000000)
T55BC 000:380.609 - 0.004ms returns 0
T55BC 000:380.612 JLINK_WriteReg(MSP, 0x20001000)
T55BC 000:380.614 - 0.004ms returns 0
T55BC 000:380.618 JLINK_WriteReg(PSP, 0x20001000)
T55BC 000:380.620 - 0.004ms returns 0
T55BC 000:380.623 JLINK_WriteReg(CFBP, 0x00000000)
T55BC 000:380.626 - 0.003ms returns 0
T55BC 000:380.629 JLINK_SetBPEx(Addr = 0x20000000, Type = 0xFFFFFFF2)
T55BC 000:380.633 - 0.005ms returns 0x00000003
T55BC 000:380.636 JLINK_Go()
T55BC 000:380.645   CPU_ReadMem(4 bytes @ 0xE0001000)
T55BC 000:382.509 - 1.875ms
T55BC 000:382.515 JLINK_IsHalted()
T55BC 000:382.758 - 0.244ms returns FALSE
T55BC 000:382.762 JLINK_HasError()
T55BC 000:384.210 JLINK_IsHalted()
T55BC 000:384.532 - 0.325ms returns FALSE
T55BC 000:384.538 JLINK_HasError()
T55BC 000:386.668 JLINK_IsHalted()
T55BC 000:386.917 - 0.249ms returns FALSE
T55BC 000:386.921 JLINK_HasError()
T55BC 000:388.707 JLINK_IsHalted()
T55BC 000:388.954 - 0.249ms returns FALSE
T55BC 000:388.958 JLINK_HasError()
T55BC 000:390.822 JLINK_IsHalted()
T55BC 000:391.012 - 0.194ms returns FALSE
T55BC 000:391.020 JLINK_HasError()
T55BC 000:392.838 JLINK_IsHalted()
T55BC 000:393.135 - 0.298ms returns FALSE
T55BC 000:393.140 JLINK_HasError()
T55BC 000:394.191 JLINK_IsHalted()
T55BC 000:394.413 - 0.223ms returns FALSE
T55BC 000:394.416 JLINK_HasError()
T55BC 000:396.260 JLINK_IsHalted()
T55BC 000:396.555 - 0.296ms returns FALSE
T55BC 000:396.559 JLINK_HasError()
T55BC 000:398.330 JLINK_IsHalted()
T55BC 000:399.955   CPU_ReadMem(2 bytes @ 0x20000000)
T55BC 000:400.142 - 1.816ms returns TRUE
T55BC 000:400.150 JLINK_ReadReg(R15 (PC))
T55BC 000:400.155 - 0.006ms returns 0x20000000
T55BC 000:400.159 JLINK_ClrBPEx(BPHandle = 0x00000003)
T55BC 000:400.162 - 0.004ms returns 0x00
T55BC 000:400.166 JLINK_ReadReg(R0)
T55BC 000:400.169 - 0.004ms returns 0x00000000
T55BC 000:400.430 JLINK_HasError()
T55BC 000:400.436 JLINK_WriteReg(R0, 0x00000001)
T55BC 000:400.441 - 0.005ms returns 0
T55BC 000:400.447 JLINK_WriteReg(R1, 0x00004000)
T55BC 000:400.450 - 0.004ms returns 0
T55BC 000:400.453 JLINK_WriteReg(R2, 0x000000FF)
T55BC 000:400.456 - 0.004ms returns 0
T55BC 000:400.459 JLINK_WriteReg(R3, 0x00000000)
T55BC 000:400.462 - 0.004ms returns 0
T55BC 000:400.465 JLINK_WriteReg(R4, 0x00000000)
T55BC 000:400.468 - 0.004ms returns 0
T55BC 000:400.471 JLINK_WriteReg(R5, 0x00000000)
T55BC 000:400.474 - 0.004ms returns 0
T55BC 000:400.480 JLINK_WriteReg(R6, 0x00000000)
T55BC 000:400.484 - 0.005ms returns 0
T55BC 000:400.488 JLINK_WriteReg(R7, 0x00000000)
T55BC 000:400.490 - 0.004ms returns 0
T55BC 000:400.493 JLINK_WriteReg(R8, 0x00000000)
T55BC 000:400.496 - 0.004ms returns 0
T55BC 000:400.499 JLINK_WriteReg(R9, 0x20000184)
T55BC 000:400.502 - 0.004ms returns 0
T55BC 000:400.505 JLINK_WriteReg(R10, 0x00000000)
T55BC 000:400.508 - 0.004ms returns 0
T55BC 000:400.511 JLINK_WriteReg(R11, 0x00000000)
T55BC 000:400.514 - 0.004ms returns 0
T55BC 000:400.517 JLINK_WriteReg(R12, 0x00000000)
T55BC 000:400.519 - 0.004ms returns 0
T55BC 000:400.523 JLINK_WriteReg(R13 (SP), 0x20001000)
T55BC 000:400.526 - 0.004ms returns 0
T55BC 000:400.529 JLINK_WriteReg(R14, 0x20000001)
T55BC 000:400.532 - 0.004ms returns 0
T55BC 000:400.535 JLINK_WriteReg(R15 (PC), 0x2000008C)
T55BC 000:400.538 - 0.004ms returns 0
T55BC 000:400.541 JLINK_WriteReg(XPSR, 0x01000000)
T55BC 000:400.544 - 0.004ms returns 0
T55BC 000:400.547 JLINK_WriteReg(MSP, 0x20001000)
T55BC 000:400.549 - 0.004ms returns 0
T55BC 000:400.553 JLINK_WriteReg(PSP, 0x20001000)
T55BC 000:400.555 - 0.004ms returns 0
T55BC 000:400.559 JLINK_WriteReg(CFBP, 0x00000000)
T55BC 000:400.561 - 0.004ms returns 0
T55BC 000:400.565 JLINK_SetBPEx(Addr = 0x20000000, Type = 0xFFFFFFF2)
T55BC 000:400.568 - 0.004ms returns 0x00000004
T55BC 000:400.571 JLINK_Go()
T55BC 000:400.579   CPU_ReadMem(4 bytes @ 0xE0001000)
T55BC 000:402.333 - 1.766ms
T55BC 000:402.341 JLINK_IsHalted()
T55BC 000:403.993   CPU_ReadMem(2 bytes @ 0x20000000)
T55BC 000:404.219 - 1.880ms returns TRUE
T55BC 000:404.224 JLINK_ReadReg(R15 (PC))
T55BC 000:404.228 - 0.005ms returns 0x20000000
T55BC 000:404.232 JLINK_ClrBPEx(BPHandle = 0x00000004)
T55BC 000:404.235 - 0.004ms returns 0x00
T55BC 000:404.239 JLINK_ReadReg(R0)
T55BC 000:404.242 - 0.004ms returns 0x00000000
T55BC 000:464.312 JLINK_WriteMem(0x20000000, 0x188 Bytes, ...)
T55BC 000:464.320   Data:  00 BE 0A E0 0D 78 2D 06 68 40 08 24 40 00 00 D3 ...
T55BC 000:464.333   CPU_WriteMem(392 bytes @ 0x20000000)
T55BC 000:465.671 - 1.382ms returns 0x188
T55BC 000:465.719 JLINK_HasError()
T55BC 000:465.724 JLINK_WriteReg(R0, 0x08000000)
T55BC 000:465.730 - 0.007ms returns 0
T55BC 000:465.734 JLINK_WriteReg(R1, 0x007A1200)
T55BC 000:465.737 - 0.004ms returns 0
T55BC 000:465.740 JLINK_WriteReg(R2, 0x00000002)
T55BC 000:465.742 - 0.004ms returns 0
T55BC 000:465.746 JLINK_WriteReg(R3, 0x00000000)
T55BC 000:465.748 - 0.004ms returns 0
T55BC 000:465.751 JLINK_WriteReg(R4, 0x00000000)
T55BC 000:465.754 - 0.004ms returns 0
T55BC 000:465.757 JLINK_WriteReg(R5, 0x00000000)
T55BC 000:465.760 - 0.003ms returns 0
T55BC 000:465.763 JLINK_WriteReg(R6, 0x00000000)
T55BC 000:465.766 - 0.004ms returns 0
T55BC 000:465.769 JLINK_WriteReg(R7, 0x00000000)
T55BC 000:465.771 - 0.003ms returns 0
T55BC 000:465.774 JLINK_WriteReg(R8, 0x00000000)
T55BC 000:465.777 - 0.004ms returns 0
T55BC 000:465.780 JLINK_WriteReg(R9, 0x20000184)
T55BC 000:465.783 - 0.003ms returns 0
T55BC 000:465.786 JLINK_WriteReg(R10, 0x00000000)
T55BC 000:465.789 - 0.004ms returns 0
T55BC 000:465.792 JLINK_WriteReg(R11, 0x00000000)
T55BC 000:465.795 - 0.004ms returns 0
T55BC 000:465.798 JLINK_WriteReg(R12, 0x00000000)
T55BC 000:465.800 - 0.003ms returns 0
T55BC 000:465.803 JLINK_WriteReg(R13 (SP), 0x20001000)
T55BC 000:465.807 - 0.004ms returns 0
T55BC 000:465.810 JLINK_WriteReg(R14, 0x20000001)
T55BC 000:465.813 - 0.004ms returns 0
T55BC 000:465.816 JLINK_WriteReg(R15 (PC), 0x2000005E)
T55BC 000:465.819 - 0.004ms returns 0
T55BC 000:465.822 JLINK_WriteReg(XPSR, 0x01000000)
T55BC 000:465.824 - 0.004ms returns 0
T55BC 000:465.828 JLINK_WriteReg(MSP, 0x20001000)
T55BC 000:465.830 - 0.003ms returns 0
T55BC 000:465.833 JLINK_WriteReg(PSP, 0x20001000)
T55BC 000:465.836 - 0.003ms returns 0
T55BC 000:465.839 JLINK_WriteReg(CFBP, 0x00000000)
T55BC 000:465.842 - 0.003ms returns 0
T55BC 000:465.845 JLINK_SetBPEx(Addr = 0x20000000, Type = 0xFFFFFFF2)
T55BC 000:465.851   CPU_ReadMem(2 bytes @ 0x20000000)
T55BC 000:466.058 - 0.214ms returns 0x00000005
T55BC 000:466.062 JLINK_Go()
T55BC 000:466.066   CPU_WriteMem(2 bytes @ 0x20000000)
T55BC 000:466.263   CPU_ReadMem(4 bytes @ 0xE0001000)
T55BC 000:468.065 - 2.005ms
T55BC 000:468.070 JLINK_IsHalted()
T55BC 000:469.739   CPU_ReadMem(2 bytes @ 0x20000000)
T55BC 000:469.962 - 1.893ms returns TRUE
T55BC 000:469.966 JLINK_ReadReg(R15 (PC))
T55BC 000:469.969 - 0.004ms returns 0x20000000
T55BC 000:469.972 JLINK_ClrBPEx(BPHandle = 0x00000005)
T55BC 000:469.975 - 0.004ms returns 0x00
T55BC 000:469.978 JLINK_ReadReg(R0)
T55BC 000:469.981 - 0.004ms returns 0x00000000
T55BC 000:470.139 JLINK_WriteMem(0x20000188, 0x278 Bytes, ...)
T55BC 000:470.144   Data:  70 20 00 20 3D 02 00 08 B1 0B 00 08 5F 03 00 08 ...
T55BC 000:470.152   CPU_WriteMem(632 bytes @ 0x20000188)
T55BC 000:472.163 - 2.042ms returns 0x278
T55BC 000:472.186 JLINK_WriteMem(0x20000400, 0x188 Bytes, ...)
T55BC 000:472.190   Data:  70 1C 00 20 EF F3 10 80 72 B6 70 47 80 F3 10 88 ...
T55BC 000:472.205   CPU_WriteMem(392 bytes @ 0x20000400)
T55BC 000:473.496 - 1.322ms returns 0x188
T55BC 000:473.526 JLINK_HasError()
T55BC 000:473.546 JLINK_WriteReg(R0, 0x08000000)
T55BC 000:473.566 - 0.021ms returns 0
T55BC 000:473.570 JLINK_WriteReg(R1, 0x00000400)
T55BC 000:473.573 - 0.005ms returns 0
T55BC 000:473.577 JLINK_WriteReg(R2, 0x20000188)
T55BC 000:473.580 - 0.004ms returns 0
T55BC 000:473.584 JLINK_WriteReg(R3, 0x00000000)
T55BC 000:473.587 - 0.004ms returns 0
T55BC 000:473.591 JLINK_WriteReg(R4, 0x00000000)
T55BC 000:473.594 - 0.004ms returns 0
T55BC 000:473.598 JLINK_WriteReg(R5, 0x00000000)
T55BC 000:473.601 - 0.004ms returns 0
T55BC 000:473.605 JLINK_WriteReg(R6, 0x00000000)
T55BC 000:473.608 - 0.004ms returns 0
T55BC 000:473.612 JLINK_WriteReg(R7, 0x00000000)
T55BC 000:473.615 - 0.004ms returns 0
T55BC 000:473.618 JLINK_WriteReg(R8, 0x00000000)
T55BC 000:473.622 - 0.004ms returns 0
T55BC 000:473.625 JLINK_WriteReg(R9, 0x20000184)
T55BC 000:473.628 - 0.004ms returns 0
T55BC 000:473.632 JLINK_WriteReg(R10, 0x00000000)
T55BC 000:473.635 - 0.004ms returns 0
T55BC 000:473.639 JLINK_WriteReg(R11, 0x00000000)
T55BC 000:473.642 - 0.004ms returns 0
T55BC 000:473.646 JLINK_WriteReg(R12, 0x00000000)
T55BC 000:473.649 - 0.004ms returns 0
T55BC 000:473.653 JLINK_WriteReg(R13 (SP), 0x20001000)
T55BC 000:473.656 - 0.005ms returns 0
T55BC 000:473.660 JLINK_WriteReg(R14, 0x20000001)
T55BC 000:473.664 - 0.005ms returns 0
T55BC 000:473.667 JLINK_WriteReg(R15 (PC), 0x20000112)
T55BC 000:473.671 - 0.005ms returns 0
T55BC 000:473.675 JLINK_WriteReg(XPSR, 0x01000000)
T55BC 000:473.678 - 0.005ms returns 0
T55BC 000:473.682 JLINK_WriteReg(MSP, 0x20001000)
T55BC 000:473.686 - 0.004ms returns 0
T55BC 000:473.690 JLINK_WriteReg(PSP, 0x20001000)
T55BC 000:473.693 - 0.005ms returns 0
T55BC 000:473.700 JLINK_WriteReg(CFBP, 0x00000000)
T55BC 000:473.704 - 0.005ms returns 0
T55BC 000:473.708 JLINK_SetBPEx(Addr = 0x20000000, Type = 0xFFFFFFF2)
T55BC 000:473.712 - 0.005ms returns 0x00000006
T55BC 000:473.716 JLINK_Go()
T55BC 000:473.723   CPU_ReadMem(4 bytes @ 0xE0001000)
T55BC 000:475.467 - 1.754ms
T55BC 000:475.474 JLINK_IsHalted()
T55BC 000:475.666 - 0.194ms returns FALSE
T55BC 000:475.670 JLINK_HasError()
T55BC 000:490.430 JLINK_IsHalted()
T55BC 000:492.474   CPU_ReadMem(2 bytes @ 0x20000000)
T55BC 000:492.696 - 2.270ms returns TRUE
T55BC 000:492.705 JLINK_ReadReg(R15 (PC))
T55BC 000:492.710 - 0.006ms returns 0x20000000
T55BC 000:492.714 JLINK_ClrBPEx(BPHandle = 0x00000006)
T55BC 000:492.717 - 0.004ms returns 0x00
T55BC 000:492.720 JLINK_ReadReg(R0)
T55BC 000:492.723 - 0.004ms returns 0x00000000
T55BC 000:493.269 JLINK_WriteMem(0x20000188, 0x278 Bytes, ...)
T55BC 000:493.273   Data:  06 46 00 27 C4 F8 18 A0 2A 2E 09 D0 30 46 00 F0 ...
T55BC 000:493.282   CPU_WriteMem(632 bytes @ 0x20000188)
T55BC 000:495.241 - 1.976ms returns 0x278
T55BC 000:495.249 JLINK_WriteMem(0x20000400, 0x188 Bytes, ...)
T55BC 000:495.253   Data:  01 2B 28 BF 20 F8 02 3B 48 BF 00 F8 01 2B 70 47 ...
T55BC 000:495.267   CPU_WriteMem(392 bytes @ 0x20000400)
T55BC 000:496.548 - 1.308ms returns 0x188
T55BC 000:496.573 JLINK_HasError()
T55BC 000:496.594 JLINK_WriteReg(R0, 0x08000400)
T55BC 000:496.617 - 0.029ms returns 0
T55BC 000:496.637 JLINK_WriteReg(R1, 0x00000400)
T55BC 000:496.639 - 0.004ms returns 0
T55BC 000:496.643 JLINK_WriteReg(R2, 0x20000188)
T55BC 000:496.645 - 0.003ms returns 0
T55BC 000:496.648 JLINK_WriteReg(R3, 0x00000000)
T55BC 000:496.651 - 0.003ms returns 0
T55BC 000:496.654 JLINK_WriteReg(R4, 0x00000000)
T55BC 000:496.657 - 0.003ms returns 0
T55BC 000:496.660 JLINK_WriteReg(R5, 0x00000000)
T55BC 000:496.662 - 0.003ms returns 0
T55BC 000:496.665 JLINK_WriteReg(R6, 0x00000000)
T55BC 000:496.668 - 0.003ms returns 0
T55BC 000:496.671 JLINK_WriteReg(R7, 0x00000000)
T55BC 000:496.674 - 0.003ms returns 0
T55BC 000:496.677 JLINK_WriteReg(R8, 0x00000000)
T55BC 000:496.679 - 0.003ms returns 0
T55BC 000:496.682 JLINK_WriteReg(R9, 0x20000184)
T55BC 000:496.685 - 0.003ms returns 0
T55BC 000:496.688 JLINK_WriteReg(R10, 0x00000000)
T55BC 000:496.691 - 0.003ms returns 0
T55BC 000:496.694 JLINK_WriteReg(R11, 0x00000000)
T55BC 000:496.697 - 0.004ms returns 0
T55BC 000:496.700 JLINK_WriteReg(R12, 0x00000000)
T55BC 000:496.702 - 0.003ms returns 0
T55BC 000:496.705 JLINK_WriteReg(R13 (SP), 0x20001000)
T55BC 000:496.708 - 0.004ms returns 0
T55BC 000:496.712 JLINK_WriteReg(R14, 0x20000001)
T55BC 000:496.714 - 0.003ms returns 0
T55BC 000:496.717 JLINK_WriteReg(R15 (PC), 0x20000112)
T55BC 000:496.720 - 0.004ms returns 0
T55BC 000:496.723 JLINK_WriteReg(XPSR, 0x01000000)
T55BC 000:496.726 - 0.003ms returns 0
T55BC 000:496.729 JLINK_WriteReg(MSP, 0x20001000)
T55BC 000:496.731 - 0.004ms returns 0
T55BC 000:496.735 JLINK_WriteReg(PSP, 0x20001000)
T55BC 000:496.737 - 0.003ms returns 0
T55BC 000:496.740 JLINK_WriteReg(CFBP, 0x00000000)
T55BC 000:496.743 - 0.004ms returns 0
T55BC 000:496.746 JLINK_SetBPEx(Addr = 0x20000000, Type = 0xFFFFFFF2)
T55BC 000:496.750 - 0.004ms returns 0x00000007
T55BC 000:496.753 JLINK_Go()
T55BC 000:496.759   CPU_ReadMem(4 bytes @ 0xE0001000)
T55BC 000:498.485 - 1.734ms
T55BC 000:498.490 JLINK_IsHalted()
T55BC 000:498.680 - 0.191ms returns FALSE
T55BC 000:498.684 JLINK_HasError()
T55BC 000:502.694 JLINK_IsHalted()
T55BC 000:504.503   CPU_ReadMem(2 bytes @ 0x20000000)
T55BC 000:504.740 - 2.048ms returns TRUE
T55BC 000:504.745 JLINK_ReadReg(R15 (PC))
T55BC 000:504.749 - 0.005ms returns 0x20000000
T55BC 000:504.752 JLINK_ClrBPEx(BPHandle = 0x00000007)
T55BC 000:504.755 - 0.004ms returns 0x00
T55BC 000:504.759 JLINK_ReadReg(R0)
T55BC 000:504.761 - 0.004ms returns 0x00000000
T55BC 000:505.012 JLINK_WriteMem(0x20000188, 0x278 Bytes, ...)
T55BC 000:505.017   Data:  39 46 20 46 00 F0 2E F8 27 B1 39 68 A1 42 01 D1 ...
T55BC 000:505.024   CPU_WriteMem(632 bytes @ 0x20000188)
T55BC 000:507.017 - 2.010ms returns 0x278
T55BC 000:507.027 JLINK_WriteMem(0x20000400, 0x188 Bytes, ...)
T55BC 000:507.030   Data:  F0 B5 0A 46 00 21 00 23 00 24 00 BF 3D E0 01 25 ...
T55BC 000:507.039   CPU_WriteMem(392 bytes @ 0x20000400)
T55BC 000:508.318 - 1.295ms returns 0x188
T55BC 000:508.327 JLINK_HasError()
T55BC 000:508.330 JLINK_WriteReg(R0, 0x08000800)
T55BC 000:508.335 - 0.006ms returns 0
T55BC 000:508.339 JLINK_WriteReg(R1, 0x00000400)
T55BC 000:508.342 - 0.004ms returns 0
T55BC 000:508.345 JLINK_WriteReg(R2, 0x20000188)
T55BC 000:508.347 - 0.003ms returns 0
T55BC 000:508.351 JLINK_WriteReg(R3, 0x00000000)
T55BC 000:508.353 - 0.003ms returns 0
T55BC 000:508.356 JLINK_WriteReg(R4, 0x00000000)
T55BC 000:508.359 - 0.003ms returns 0
T55BC 000:508.362 JLINK_WriteReg(R5, 0x00000000)
T55BC 000:508.365 - 0.003ms returns 0
T55BC 000:508.368 JLINK_WriteReg(R6, 0x00000000)
T55BC 000:508.370 - 0.003ms returns 0
T55BC 000:508.374 JLINK_WriteReg(R7, 0x00000000)
T55BC 000:508.376 - 0.003ms returns 0
T55BC 000:508.379 JLINK_WriteReg(R8, 0x00000000)
T55BC 000:508.382 - 0.003ms returns 0
T55BC 000:508.385 JLINK_WriteReg(R9, 0x20000184)
T55BC 000:508.430 - 0.047ms returns 0
T55BC 000:508.435 JLINK_WriteReg(R10, 0x00000000)
T55BC 000:508.438 - 0.004ms returns 0
T55BC 000:508.441 JLINK_WriteReg(R11, 0x00000000)
T55BC 000:508.444 - 0.003ms returns 0
T55BC 000:508.447 JLINK_WriteReg(R12, 0x00000000)
T55BC 000:508.449 - 0.003ms returns 0
T55BC 000:508.458 JLINK_WriteReg(R13 (SP), 0x20001000)
T55BC 000:508.468 - 0.011ms returns 0
T55BC 000:508.472 JLINK_WriteReg(R14, 0x20000001)
T55BC 000:508.475 - 0.004ms returns 0
T55BC 000:508.478 JLINK_WriteReg(R15 (PC), 0x20000112)
T55BC 000:508.481 - 0.004ms returns 0
T55BC 000:508.510 JLINK_WriteReg(XPSR, 0x01000000)
T55BC 000:508.518 - 0.009ms returns 0
T55BC 000:508.522 JLINK_WriteReg(MSP, 0x20001000)
T55BC 000:508.525 - 0.004ms returns 0
T55BC 000:508.528 JLINK_WriteReg(PSP, 0x20001000)
T55BC 000:508.531 - 0.004ms returns 0
T55BC 000:508.534 JLINK_WriteReg(CFBP, 0x00000000)
T55BC 000:508.537 - 0.004ms returns 0
T55BC 000:508.540 JLINK_SetBPEx(Addr = 0x20000000, Type = 0xFFFFFFF2)
T55BC 000:508.544 - 0.005ms returns 0x00000008
T55BC 000:508.548 JLINK_Go()
T55BC 000:508.555   CPU_ReadMem(4 bytes @ 0xE0001000)
T55BC 000:510.412 - 1.867ms
T55BC 000:510.418 JLINK_IsHalted()
T55BC 000:510.636 - 0.219ms returns FALSE
T55BC 000:510.640 JLINK_HasError()
T55BC 000:518.635 JLINK_IsHalted()
T55BC 000:520.376   CPU_ReadMem(2 bytes @ 0x20000000)
T55BC 000:520.637 - 2.004ms returns TRUE
T55BC 000:520.642 JLINK_ReadReg(R15 (PC))
T55BC 000:520.646 - 0.005ms returns 0x20000000
T55BC 000:520.649 JLINK_ClrBPEx(BPHandle = 0x00000008)
T55BC 000:520.652 - 0.004ms returns 0x00
T55BC 000:520.655 JLINK_ReadReg(R0)
T55BC 000:520.658 - 0.004ms returns 0x00000000
T55BC 000:520.918 JLINK_WriteMem(0x20000188, 0x278 Bytes, ...)
T55BC 000:520.923   Data:  E0 25 C5 F8 00 41 09 E0 04 78 04 F0 1F 05 01 24 ...
T55BC 000:520.930   CPU_WriteMem(632 bytes @ 0x20000188)
T55BC 000:522.941 - 2.038ms returns 0x278
T55BC 000:522.961 JLINK_WriteMem(0x20000400, 0x188 Bytes, ...)
T55BC 000:522.964   Data:  08 54 40 07 00 3C 02 40 10 B5 2D ED 02 8B B0 EE ...
T55BC 000:523.114   CPU_WriteMem(392 bytes @ 0x20000400)
T55BC 000:524.396 - 1.441ms returns 0x188
T55BC 000:524.406 JLINK_HasError()
T55BC 000:524.410 JLINK_WriteReg(R0, 0x08000C00)
T55BC 000:524.415 - 0.006ms returns 0
T55BC 000:524.418 JLINK_WriteReg(R1, 0x00000400)
T55BC 000:524.421 - 0.004ms returns 0
T55BC 000:524.424 JLINK_WriteReg(R2, 0x20000188)
T55BC 000:524.427 - 0.003ms returns 0
T55BC 000:524.430 JLINK_WriteReg(R3, 0x00000000)
T55BC 000:524.432 - 0.003ms returns 0
T55BC 000:524.436 JLINK_WriteReg(R4, 0x00000000)
T55BC 000:524.438 - 0.004ms returns 0
T55BC 000:524.441 JLINK_WriteReg(R5, 0x00000000)
T55BC 000:524.444 - 0.003ms returns 0
T55BC 000:524.447 JLINK_WriteReg(R6, 0x00000000)
T55BC 000:524.450 - 0.003ms returns 0
T55BC 000:524.453 JLINK_WriteReg(R7, 0x00000000)
T55BC 000:524.456 - 0.003ms returns 0
T55BC 000:524.459 JLINK_WriteReg(R8, 0x00000000)
T55BC 000:524.461 - 0.003ms returns 0
T55BC 000:524.464 JLINK_WriteReg(R9, 0x20000184)
T55BC 000:524.467 - 0.004ms returns 0
T55BC 000:524.470 JLINK_WriteReg(R10, 0x00000000)
T55BC 000:524.473 - 0.003ms returns 0
T55BC 000:524.476 JLINK_WriteReg(R11, 0x00000000)
T55BC 000:524.478 - 0.003ms returns 0
T55BC 000:524.481 JLINK_WriteReg(R12, 0x00000000)
T55BC 000:524.484 - 0.003ms returns 0
T55BC 000:524.487 JLINK_WriteReg(R13 (SP), 0x20001000)
T55BC 000:524.490 - 0.004ms returns 0
T55BC 000:524.493 JLINK_WriteReg(R14, 0x20000001)
T55BC 000:524.496 - 0.004ms returns 0
T55BC 000:524.499 JLINK_WriteReg(R15 (PC), 0x20000112)
T55BC 000:524.502 - 0.004ms returns 0
T55BC 000:524.505 JLINK_WriteReg(XPSR, 0x01000000)
T55BC 000:524.508 - 0.004ms returns 0
T55BC 000:524.511 JLINK_WriteReg(MSP, 0x20001000)
T55BC 000:524.513 - 0.004ms returns 0
T55BC 000:524.517 JLINK_WriteReg(PSP, 0x20001000)
T55BC 000:524.519 - 0.003ms returns 0
T55BC 000:524.522 JLINK_WriteReg(CFBP, 0x00000000)
T55BC 000:524.525 - 0.004ms returns 0
T55BC 000:524.528 JLINK_SetBPEx(Addr = 0x20000000, Type = 0xFFFFFFF2)
T55BC 000:524.564 - 0.038ms returns 0x00000009
T55BC 000:524.568 JLINK_Go()
T55BC 000:524.575   CPU_ReadMem(4 bytes @ 0xE0001000)
T55BC 000:526.312 - 1.745ms
T55BC 000:526.316 JLINK_IsHalted()
T55BC 000:526.511 - 0.196ms returns FALSE
T55BC 000:526.515 JLINK_HasError()
T55BC 000:529.476 JLINK_IsHalted()
T55BC 000:529.688 - 0.217ms returns FALSE
T55BC 000:529.697 JLINK_HasError()
T55BC 000:532.475 JLINK_IsHalted()
T55BC 000:534.280   CPU_ReadMem(2 bytes @ 0x20000000)
T55BC 000:534.509 - 2.036ms returns TRUE
T55BC 000:534.514 JLINK_ReadReg(R15 (PC))
T55BC 000:534.518 - 0.005ms returns 0x20000000
T55BC 000:534.521 JLINK_ClrBPEx(BPHandle = 0x00000009)
T55BC 000:534.524 - 0.004ms returns 0x00
T55BC 000:534.527 JLINK_ReadReg(R0)
T55BC 000:534.530 - 0.004ms returns 0x00000000
T55BC 000:534.790 JLINK_WriteMem(0x20000188, 0x278 Bytes, ...)
T55BC 000:534.795   Data:  08 EE 90 0A 9F ED 20 0A B0 EE 40 9A 9F ED 1F 0A ...
T55BC 000:534.803   CPU_WriteMem(632 bytes @ 0x20000188)
T55BC 000:536.946 - 2.160ms returns 0x278
T55BC 000:536.955 JLINK_WriteMem(0x20000400, 0x188 Bytes, ...)
T55BC 000:536.960   Data:  31 68 49 00 B0 FB F1 F7 07 E0 09 EB C9 00 00 EB ...
T55BC 000:536.989   CPU_WriteMem(392 bytes @ 0x20000400)
T55BC 000:538.243 - 1.291ms returns 0x188
T55BC 000:538.250 JLINK_HasError()
T55BC 000:538.254 JLINK_WriteReg(R0, 0x08001000)
T55BC 000:538.259 - 0.006ms returns 0
T55BC 000:538.262 JLINK_WriteReg(R1, 0x00000400)
T55BC 000:538.265 - 0.004ms returns 0
T55BC 000:538.268 JLINK_WriteReg(R2, 0x20000188)
T55BC 000:538.271 - 0.004ms returns 0
T55BC 000:538.274 JLINK_WriteReg(R3, 0x00000000)
T55BC 000:538.277 - 0.004ms returns 0
T55BC 000:538.280 JLINK_WriteReg(R4, 0x00000000)
T55BC 000:538.283 - 0.004ms returns 0
T55BC 000:538.286 JLINK_WriteReg(R5, 0x00000000)
T55BC 000:538.288 - 0.004ms returns 0
T55BC 000:538.292 JLINK_WriteReg(R6, 0x00000000)
T55BC 000:538.294 - 0.003ms returns 0
T55BC 000:538.297 JLINK_WriteReg(R7, 0x00000000)
T55BC 000:538.300 - 0.003ms returns 0
T55BC 000:538.303 JLINK_WriteReg(R8, 0x00000000)
T55BC 000:538.306 - 0.003ms returns 0
T55BC 000:538.309 JLINK_WriteReg(R9, 0x20000184)
T55BC 000:538.311 - 0.004ms returns 0
T55BC 000:538.315 JLINK_WriteReg(R10, 0x00000000)
T55BC 000:538.317 - 0.004ms returns 0
T55BC 000:538.320 JLINK_WriteReg(R11, 0x00000000)
T55BC 000:538.323 - 0.004ms returns 0
T55BC 000:538.326 JLINK_WriteReg(R12, 0x00000000)
T55BC 000:538.329 - 0.003ms returns 0
T55BC 000:538.332 JLINK_WriteReg(R13 (SP), 0x20001000)
T55BC 000:538.335 - 0.004ms returns 0
T55BC 000:538.338 JLINK_WriteReg(R14, 0x20000001)
T55BC 000:538.341 - 0.004ms returns 0
T55BC 000:538.344 JLINK_WriteReg(R15 (PC), 0x20000112)
T55BC 000:538.347 - 0.004ms returns 0
T55BC 000:538.350 JLINK_WriteReg(XPSR, 0x01000000)
T55BC 000:538.353 - 0.004ms returns 0
T55BC 000:538.356 JLINK_WriteReg(MSP, 0x20001000)
T55BC 000:538.358 - 0.004ms returns 0
T55BC 000:538.362 JLINK_WriteReg(PSP, 0x20001000)
T55BC 000:538.364 - 0.004ms returns 0
T55BC 000:538.367 JLINK_WriteReg(CFBP, 0x00000000)
T55BC 000:538.370 - 0.004ms returns 0
T55BC 000:538.373 JLINK_SetBPEx(Addr = 0x20000000, Type = 0xFFFFFFF2)
T55BC 000:538.377 - 0.004ms returns 0x0000000A
T55BC 000:538.380 JLINK_Go()
T55BC 000:538.386   CPU_ReadMem(4 bytes @ 0xE0001000)
T55BC 000:540.107 - 1.729ms
T55BC 000:540.114 JLINK_IsHalted()
T55BC 000:540.282 - 0.173ms returns FALSE
T55BC 000:540.292 JLINK_HasError()
T55BC 000:544.175 JLINK_IsHalted()
T55BC 000:544.391 - 0.218ms returns FALSE
T55BC 000:544.396 JLINK_HasError()
T55BC 000:547.223 JLINK_IsHalted()
T55BC 000:548.939   CPU_ReadMem(2 bytes @ 0x20000000)
T55BC 000:549.194 - 1.973ms returns TRUE
T55BC 000:549.200 JLINK_ReadReg(R15 (PC))
T55BC 000:549.204 - 0.005ms returns 0x20000000
T55BC 000:549.207 JLINK_ClrBPEx(BPHandle = 0x0000000A)
T55BC 000:549.211 - 0.004ms returns 0x00
T55BC 000:549.214 JLINK_ReadReg(R0)
T55BC 000:549.217 - 0.004ms returns 0x00000000
T55BC 000:549.478 JLINK_WriteMem(0x20000188, 0x278 Bytes, ...)
T55BC 000:549.483   Data:  38 46 A8 47 C9 F8 00 00 00 20 DE E7 2D E9 FC 5F ...
T55BC 000:549.495   CPU_WriteMem(632 bytes @ 0x20000188)
T55BC 000:551.464 - 1.988ms returns 0x278
T55BC 000:551.470 JLINK_WriteMem(0x20000400, 0x188 Bytes, ...)
T55BC 000:551.473   Data:  FF F9 4F F4 E1 30 01 90 00 20 AD F8 08 00 AD F8 ...
T55BC 000:551.479   CPU_WriteMem(392 bytes @ 0x20000400)
T55BC 000:552.814 - 1.349ms returns 0x188
T55BC 000:552.823 JLINK_HasError()
T55BC 000:552.827 JLINK_WriteReg(R0, 0x08001400)
T55BC 000:552.832 - 0.006ms returns 0
T55BC 000:552.835 JLINK_WriteReg(R1, 0x00000400)
T55BC 000:552.838 - 0.004ms returns 0
T55BC 000:552.841 JLINK_WriteReg(R2, 0x20000188)
T55BC 000:552.844 - 0.006ms returns 0
T55BC 000:552.859 JLINK_WriteReg(R3, 0x00000000)
T55BC 000:552.875 - 0.018ms returns 0
T55BC 000:552.879 JLINK_WriteReg(R4, 0x00000000)
T55BC 000:552.882 - 0.004ms returns 0
T55BC 000:552.885 JLINK_WriteReg(R5, 0x00000000)
T55BC 000:552.888 - 0.003ms returns 0
T55BC 000:552.891 JLINK_WriteReg(R6, 0x00000000)
T55BC 000:552.893 - 0.003ms returns 0
T55BC 000:552.896 JLINK_WriteReg(R7, 0x00000000)
T55BC 000:552.899 - 0.004ms returns 0
T55BC 000:552.902 JLINK_WriteReg(R8, 0x00000000)
T55BC 000:552.905 - 0.003ms returns 0
T55BC 000:552.908 JLINK_WriteReg(R9, 0x20000184)
T55BC 000:552.911 - 0.003ms returns 0
T55BC 000:552.914 JLINK_WriteReg(R10, 0x00000000)
T55BC 000:552.916 - 0.004ms returns 0
T55BC 000:552.919 JLINK_WriteReg(R11, 0x00000000)
T55BC 000:552.922 - 0.003ms returns 0
T55BC 000:552.925 JLINK_WriteReg(R12, 0x00000000)
T55BC 000:552.928 - 0.004ms returns 0
T55BC 000:552.931 JLINK_WriteReg(R13 (SP), 0x20001000)
T55BC 000:552.934 - 0.019ms returns 0
T55BC 000:552.954 JLINK_WriteReg(R14, 0x20000001)
T55BC 000:552.958 - 0.005ms returns 0
T55BC 000:552.961 JLINK_WriteReg(R15 (PC), 0x20000112)
T55BC 000:552.972 - 0.012ms returns 0
T55BC 000:552.976 JLINK_WriteReg(XPSR, 0x01000000)
T55BC 000:552.979 - 0.004ms returns 0
T55BC 000:552.982 JLINK_WriteReg(MSP, 0x20001000)
T55BC 000:552.985 - 0.004ms returns 0
T55BC 000:552.988 JLINK_WriteReg(PSP, 0x20001000)
T55BC 000:552.991 - 0.003ms returns 0
T55BC 000:552.994 JLINK_WriteReg(CFBP, 0x00000000)
T55BC 000:552.997 - 0.003ms returns 0
T55BC 000:553.000 JLINK_SetBPEx(Addr = 0x20000000, Type = 0xFFFFFFF2)
T55BC 000:553.003 - 0.004ms returns 0x0000000B
T55BC 000:553.007 JLINK_Go()
T55BC 000:553.013   CPU_ReadMem(4 bytes @ 0xE0001000)
T55BC 000:554.714 - 1.711ms
T55BC 000:554.721 JLINK_IsHalted()
T55BC 000:554.914 - 0.194ms returns FALSE
T55BC 000:554.918 JLINK_HasError()
T55BC 000:560.147 JLINK_IsHalted()
T55BC 000:561.770   CPU_ReadMem(2 bytes @ 0x20000000)
T55BC 000:561.992 - 1.846ms returns TRUE
T55BC 000:561.997 JLINK_ReadReg(R15 (PC))
T55BC 000:562.001 - 0.005ms returns 0x20000000
T55BC 000:562.005 JLINK_ClrBPEx(BPHandle = 0x0000000B)
T55BC 000:562.008 - 0.004ms returns 0x00
T55BC 000:562.011 JLINK_ReadReg(R0)
T55BC 000:562.014 - 0.004ms returns 0x00000000
T55BC 000:562.281 JLINK_WriteMem(0x20000188, 0x278 Bytes, ...)
T55BC 000:562.286   Data:  13 A1 09 48 00 68 01 F0 B7 FE 01 20 FF F7 BE FF ...
T55BC 000:562.294   CPU_WriteMem(632 bytes @ 0x20000188)
T55BC 000:564.302 - 2.038ms returns 0x278
T55BC 000:564.337 JLINK_WriteMem(0x20000400, 0x188 Bytes, ...)
T55BC 000:564.355   Data:  81 54 C0 E0 0D 2C 01 D0 0A 2C 2B D1 00 F0 52 FE ...
T55BC 000:564.362   CPU_WriteMem(392 bytes @ 0x20000400)
T55BC 000:565.614 - 1.278ms returns 0x188
T55BC 000:565.620 JLINK_HasError()
T55BC 000:565.638 JLINK_WriteReg(R0, 0x08001800)
T55BC 000:565.642 - 0.005ms returns 0
T55BC 000:565.645 JLINK_WriteReg(R1, 0x00000400)
T55BC 000:565.648 - 0.004ms returns 0
T55BC 000:565.651 JLINK_WriteReg(R2, 0x20000188)
T55BC 000:565.653 - 0.003ms returns 0
T55BC 000:565.657 JLINK_WriteReg(R3, 0x00000000)
T55BC 000:565.659 - 0.003ms returns 0
T55BC 000:565.662 JLINK_WriteReg(R4, 0x00000000)
T55BC 000:565.665 - 0.003ms returns 0
T55BC 000:565.668 JLINK_WriteReg(R5, 0x00000000)
T55BC 000:565.671 - 0.003ms returns 0
T55BC 000:565.674 JLINK_WriteReg(R6, 0x00000000)
T55BC 000:565.679 - 0.007ms returns 0
T55BC 000:565.683 JLINK_WriteReg(R7, 0x00000000)
T55BC 000:565.686 - 0.004ms returns 0
T55BC 000:565.689 JLINK_WriteReg(R8, 0x00000000)
T55BC 000:565.692 - 0.003ms returns 0
T55BC 000:565.695 JLINK_WriteReg(R9, 0x20000184)
T55BC 000:565.698 - 0.004ms returns 0
T55BC 000:565.701 JLINK_WriteReg(R10, 0x00000000)
T55BC 000:565.703 - 0.004ms returns 0
T55BC 000:565.707 JLINK_WriteReg(R11, 0x00000000)
T55BC 000:565.709 - 0.003ms returns 0
T55BC 000:565.712 JLINK_WriteReg(R12, 0x00000000)
T55BC 000:565.715 - 0.003ms returns 0
T55BC 000:565.718 JLINK_WriteReg(R13 (SP), 0x20001000)
T55BC 000:565.721 - 0.004ms returns 0
T55BC 000:565.724 JLINK_WriteReg(R14, 0x20000001)
T55BC 000:565.727 - 0.004ms returns 0
T55BC 000:565.730 JLINK_WriteReg(R15 (PC), 0x20000112)
T55BC 000:565.733 - 0.004ms returns 0
T55BC 000:565.736 JLINK_WriteReg(XPSR, 0x01000000)
T55BC 000:565.738 - 0.004ms returns 0
T55BC 000:565.742 JLINK_WriteReg(MSP, 0x20001000)
T55BC 000:565.744 - 0.003ms returns 0
T55BC 000:565.747 JLINK_WriteReg(PSP, 0x20001000)
T55BC 000:565.750 - 0.003ms returns 0
T55BC 000:565.753 JLINK_WriteReg(CFBP, 0x00000000)
T55BC 000:565.756 - 0.003ms returns 0
T55BC 000:565.759 JLINK_SetBPEx(Addr = 0x20000000, Type = 0xFFFFFFF2)
T55BC 000:565.762 - 0.004ms returns 0x0000000C
T55BC 000:565.765 JLINK_Go()
T55BC 000:565.771   CPU_ReadMem(4 bytes @ 0xE0001000)
T55BC 000:567.509 - 1.745ms
T55BC 000:567.514 JLINK_IsHalted()
T55BC 000:567.764 - 0.255ms returns FALSE
T55BC 000:567.773 JLINK_HasError()
T55BC 000:575.204 JLINK_IsHalted()
T55BC 000:576.853   CPU_ReadMem(2 bytes @ 0x20000000)
T55BC 000:577.056 - 1.853ms returns TRUE
T55BC 000:577.061 JLINK_ReadReg(R15 (PC))
T55BC 000:577.065 - 0.005ms returns 0x20000000
T55BC 000:577.069 JLINK_ClrBPEx(BPHandle = 0x0000000C)
T55BC 000:577.072 - 0.004ms returns 0x00
T55BC 000:577.075 JLINK_ReadReg(R0)
T55BC 000:577.078 - 0.004ms returns 0x00000000
T55BC 000:577.437 JLINK_WriteMem(0x20000188, 0x278 Bytes, ...)
T55BC 000:577.443   Data:  CC 00 00 20 08 00 00 00 25 63 00 00 08 25 73 20 ...
T55BC 000:577.452   CPU_WriteMem(632 bytes @ 0x20000188)
T55BC 000:579.455 - 2.020ms returns 0x278
T55BC 000:579.460 JLINK_WriteMem(0x20000400, 0x188 Bytes, ...)
T55BC 000:579.463   Data:  30 F9 82 46 20 8D 61 8D 23 46 10 22 CD E9 01 0A ...
T55BC 000:579.468   CPU_WriteMem(392 bytes @ 0x20000400)
T55BC 000:580.785 - 1.334ms returns 0x188
T55BC 000:580.810 JLINK_HasError()
T55BC 000:580.830 JLINK_WriteReg(R0, 0x08001C00)
T55BC 000:580.850 - 0.027ms returns 0
T55BC 000:580.869 JLINK_WriteReg(R1, 0x00000400)
T55BC 000:580.885 - 0.017ms returns 0
T55BC 000:580.888 JLINK_WriteReg(R2, 0x20000188)
T55BC 000:580.890 - 0.003ms returns 0
T55BC 000:580.893 JLINK_WriteReg(R3, 0x00000000)
T55BC 000:580.896 - 0.003ms returns 0
T55BC 000:580.899 JLINK_WriteReg(R4, 0x00000000)
T55BC 000:580.902 - 0.003ms returns 0
T55BC 000:580.905 JLINK_WriteReg(R5, 0x00000000)
T55BC 000:580.908 - 0.003ms returns 0
T55BC 000:580.911 JLINK_WriteReg(R6, 0x00000000)
T55BC 000:580.913 - 0.003ms returns 0
T55BC 000:580.916 JLINK_WriteReg(R7, 0x00000000)
T55BC 000:580.919 - 0.004ms returns 0
T55BC 000:580.922 JLINK_WriteReg(R8, 0x00000000)
T55BC 000:580.925 - 0.004ms returns 0
T55BC 000:580.928 JLINK_WriteReg(R9, 0x20000184)
T55BC 000:580.931 - 0.003ms returns 0
T55BC 000:580.934 JLINK_WriteReg(R10, 0x00000000)
T55BC 000:580.936 - 0.004ms returns 0
T55BC 000:580.939 JLINK_WriteReg(R11, 0x00000000)
T55BC 000:580.942 - 0.004ms returns 0
T55BC 000:580.945 JLINK_WriteReg(R12, 0x00000000)
T55BC 000:580.948 - 0.003ms returns 0
T55BC 000:580.951 JLINK_WriteReg(R13 (SP), 0x20001000)
T55BC 000:580.954 - 0.004ms returns 0
T55BC 000:580.957 JLINK_WriteReg(R14, 0x20000001)
T55BC 000:580.960 - 0.004ms returns 0
T55BC 000:580.963 JLINK_WriteReg(R15 (PC), 0x20000112)
T55BC 000:580.966 - 0.004ms returns 0
T55BC 000:580.969 JLINK_WriteReg(XPSR, 0x01000000)
T55BC 000:580.972 - 0.003ms returns 0
T55BC 000:580.975 JLINK_WriteReg(MSP, 0x20001000)
T55BC 000:580.977 - 0.007ms returns 0
T55BC 000:580.986 JLINK_WriteReg(PSP, 0x20001000)
T55BC 000:580.988 - 0.004ms returns 0
T55BC 000:580.991 JLINK_WriteReg(CFBP, 0x00000000)
T55BC 000:580.994 - 0.003ms returns 0
T55BC 000:580.998 JLINK_SetBPEx(Addr = 0x20000000, Type = 0xFFFFFFF2)
T55BC 000:581.001 - 0.004ms returns 0x0000000D
T55BC 000:581.004 JLINK_Go()
T55BC 000:581.011   CPU_ReadMem(4 bytes @ 0xE0001000)
T55BC 000:582.714 - 1.711ms
T55BC 000:582.718 JLINK_IsHalted()
T55BC 000:582.917 - 0.200ms returns FALSE
T55BC 000:582.921 JLINK_HasError()
T55BC 000:587.183 JLINK_IsHalted()
T55BC 000:588.920   CPU_ReadMem(2 bytes @ 0x20000000)
T55BC 000:589.162 - 1.981ms returns TRUE
T55BC 000:589.167 JLINK_ReadReg(R15 (PC))
T55BC 000:589.171 - 0.005ms returns 0x20000000
T55BC 000:589.174 JLINK_ClrBPEx(BPHandle = 0x0000000D)
T55BC 000:589.177 - 0.004ms returns 0x00
T55BC 000:589.180 JLINK_ReadReg(R0)
T55BC 000:589.183 - 0.004ms returns 0x00000000
T55BC 000:589.448 JLINK_WriteMem(0x20000188, 0x278 Bytes, ...)
T55BC 000:589.453   Data:  0A A9 38 46 FF F7 B3 FE 07 46 00 25 41 E0 02 A8 ...
T55BC 000:589.461   CPU_WriteMem(632 bytes @ 0x20000188)
T55BC 000:591.420 - 1.977ms returns 0x278
T55BC 000:591.430 JLINK_WriteMem(0x20000400, 0x188 Bytes, ...)
T55BC 000:591.434   Data:  25 2D 2A 2E 2A 73 20 25 33 64 20 00 20 72 65 61 ...
T55BC 000:591.442   CPU_WriteMem(392 bytes @ 0x20000400)
T55BC 000:592.743 - 1.314ms returns 0x188
T55BC 000:592.749 JLINK_HasError()
T55BC 000:592.753 JLINK_WriteReg(R0, 0x08002000)
T55BC 000:592.757 - 0.005ms returns 0
T55BC 000:592.760 JLINK_WriteReg(R1, 0x00000400)
T55BC 000:592.763 - 0.004ms returns 0
T55BC 000:592.766 JLINK_WriteReg(R2, 0x20000188)
T55BC 000:592.768 - 0.004ms returns 0
T55BC 000:592.772 JLINK_WriteReg(R3, 0x00000000)
T55BC 000:592.774 - 0.003ms returns 0
T55BC 000:592.777 JLINK_WriteReg(R4, 0x00000000)
